
 /----------------------------------------------------------------------------\
 |                                                                            |
 |  yosys -- Yosys Open SYnthesis Suite                                       |
 |                                                                            |
 |  Copyright (C) 2012 - 2020  Claire Xenia Wolf <claire@yosyshq.com>         |
 |                                                                            |
 |  Permission to use, copy, modify, and/or distribute this software for any  |
 |  purpose with or without fee is hereby granted, provided that the above    |
 |  copyright notice and this permission notice appear in all copies.         |
 |                                                                            |
 |  THE SOFTWARE IS PROVIDED "AS IS" AND THE AUTHOR DISCLAIMS ALL WARRANTIES  |
 |  WITH REGARD TO THIS SOFTWARE INCLUDING ALL IMPLIED WARRANTIES OF          |
 |  MERCHANTABILITY AND FITNESS. IN NO EVENT SHALL THE AUTHOR BE LIABLE FOR   |
 |  ANY SPECIAL, DIRECT, INDIRECT, OR CONSEQUENTIAL DAMAGES OR ANY DAMAGES    |
 |  WHATSOEVER RESULTING FROM LOSS OF USE, DATA OR PROFITS, WHETHER IN AN     |
 |  ACTION OF CONTRACT, NEGLIGENCE OR OTHER TORTIOUS ACTION, ARISING OUT OF   |
 |  OR IN CONNECTION WITH THE USE OR PERFORMANCE OF THIS SOFTWARE.            |
 |                                                                            |
 \----------------------------------------------------------------------------/

 Yosys 0.33 (git sha1 2584903a060)


-- Executing script file `../model/design.ys' --

1. Executing Verilog-2005 frontend: uart_axi.sv
Parsing formal SystemVerilog input from `uart_axi.sv' to AST representation.
Storing AST representation for module `$abstract\uart_axi'.
Successfully finished Verilog frontend.

2. Executing Verilog-2005 frontend: fv_uart_proto.sv
Parsing formal SystemVerilog input from `fv_uart_proto.sv' to AST representation.
Storing AST representation for module `$abstract\fv_uart_proto'.
Successfully finished Verilog frontend.

3. Executing PREP pass.

3.1. Executing HIERARCHY pass (managing design hierarchy).

3.2. Executing AST frontend in derive mode using pre-parsed AST for module `\fv_uart_proto'.
Generating RTLIL representation for module `\fv_uart_proto'.

3.2.1. Analyzing design hierarchy..
Top module:  \fv_uart_proto

3.2.2. Executing AST frontend in derive mode using pre-parsed AST for module `\uart_axi'.
Generating RTLIL representation for module `\uart_axi'.

3.2.3. Analyzing design hierarchy..
Top module:  \fv_uart_proto
Used module:     \uart_axi

3.2.4. Analyzing design hierarchy..
Top module:  \fv_uart_proto
Used module:     \uart_axi
Removing unused module `$abstract\fv_uart_proto'.
Removing unused module `$abstract\uart_axi'.
Removed 2 unused modules.
Module uart_axi directly or indirectly contains formal properties -> setting "keep" attribute.
Module fv_uart_proto directly or indirectly contains formal properties -> setting "keep" attribute.

3.3. Executing PROC pass (convert processes to netlists).

3.3.1. Executing PROC_CLEAN pass (remove empty switches from decision trees).
Cleaned up 0 empty switches.

3.3.2. Executing PROC_RMDEAD pass (remove dead branches from decision trees).
Marked 1 switch rules as full_case in process $proc$uart_axi.sv:0$96 in module uart_axi.
Marked 2 switch rules as full_case in process $proc$uart_axi.sv:340$93 in module uart_axi.
Marked 1 switch rules as full_case in process $proc$uart_axi.sv:304$65 in module uart_axi.
Removed 1 dead cases from process $proc$uart_axi.sv:243$57 in module uart_axi.
Marked 6 switch rules as full_case in process $proc$uart_axi.sv:243$57 in module uart_axi.
Removed 1 dead cases from process $proc$uart_axi.sv:167$48 in module uart_axi.
Marked 6 switch rules as full_case in process $proc$uart_axi.sv:167$48 in module uart_axi.
Marked 1 switch rules as full_case in process $proc$uart_axi.sv:128$35 in module uart_axi.
Removed a total of 2 dead cases.

3.3.3. Executing PROC_PRUNE pass (remove redundant assignments in processes).
Removed 7 redundant assignments.
Promoted 11 assignments to connections.

3.3.4. Executing PROC_INIT pass (extract init attributes).
Found init rule in `\uart_axi.$proc$uart_axi.sv:0$146'.
  Set init value: $formal$uart_axi.sv:422$15_EN = 1'0
Found init rule in `\uart_axi.$proc$uart_axi.sv:0$144'.
  Set init value: $formal$uart_axi.sv:413$14_EN = 1'0
Found init rule in `\uart_axi.$proc$uart_axi.sv:0$142'.
  Set init value: $formal$uart_axi.sv:410$13_EN = 1'0
Found init rule in `\uart_axi.$proc$uart_axi.sv:0$140'.
  Set init value: $formal$uart_axi.sv:397$12_EN = 1'0
Found init rule in `\uart_axi.$proc$uart_axi.sv:0$138'.
  Set init value: $formal$uart_axi.sv:395$11_EN = 1'0
Found init rule in `\uart_axi.$proc$uart_axi.sv:0$136'.
  Set init value: $formal$uart_axi.sv:393$10_EN = 1'0

3.3.5. Executing PROC_ARST pass (detect async resets in processes).
Found async reset \rst_n in `\uart_axi.$proc$uart_axi.sv:340$93'.
Found async reset \rst_n in `\uart_axi.$proc$uart_axi.sv:304$65'.
Found async reset \rst_n in `\uart_axi.$proc$uart_axi.sv:243$57'.
Found async reset \rst_n in `\uart_axi.$proc$uart_axi.sv:167$48'.
Found async reset \rst_n in `\uart_axi.$proc$uart_axi.sv:128$35'.

3.3.6. Executing PROC_ROM pass (convert switches to ROMs).
Converted 0 switches.
<suppressed ~28 debug messages>

3.3.7. Executing PROC_MUX pass (convert decision trees to multiplexers).
Creating decoders for process `\uart_axi.$proc$uart_axi.sv:0$146'.
Creating decoders for process `\uart_axi.$proc$uart_axi.sv:0$144'.
Creating decoders for process `\uart_axi.$proc$uart_axi.sv:0$142'.
Creating decoders for process `\uart_axi.$proc$uart_axi.sv:0$140'.
Creating decoders for process `\uart_axi.$proc$uart_axi.sv:0$138'.
Creating decoders for process `\uart_axi.$proc$uart_axi.sv:0$136'.
Creating decoders for process `\uart_axi.$proc$uart_axi.sv:421$126'.
     1/2: $0$formal$uart_axi.sv:422$15_EN[0:0]$128
     2/2: $0$formal$uart_axi.sv:422$15_CHECK[0:0]$127
Creating decoders for process `\uart_axi.$proc$uart_axi.sv:407$117'.
     1/4: $0$formal$uart_axi.sv:410$13_EN[0:0]$121
     2/4: $0$formal$uart_axi.sv:410$13_CHECK[0:0]$120
     3/4: $0$formal$uart_axi.sv:413$14_EN[0:0]$123
     4/4: $0$formal$uart_axi.sv:413$14_CHECK[0:0]$122
Creating decoders for process `\uart_axi.$proc$uart_axi.sv:392$101'.
     1/6: $0$formal$uart_axi.sv:393$10_EN[0:0]$103
     2/6: $0$formal$uart_axi.sv:393$10_CHECK[0:0]$102
     3/6: $0$formal$uart_axi.sv:395$11_EN[0:0]$105
     4/6: $0$formal$uart_axi.sv:395$11_CHECK[0:0]$104
     5/6: $0$formal$uart_axi.sv:397$12_EN[0:0]$107
     6/6: $0$formal$uart_axi.sv:397$12_CHECK[0:0]$106
Creating decoders for process `\uart_axi.$proc$uart_axi.sv:0$96'.
     1/1: $1\rd_data_mux[31:0]
Creating decoders for process `\uart_axi.$proc$uart_axi.sv:340$93'.
     1/7: $0\rd_idx_r[5:0]
     2/7: $0\w_strb_r[3:0]
     3/7: $0\w_data_r[31:0]
     4/7: $0\aw_idx_r[5:0]
     5/7: $0\w_got[0:0]
     6/7: $0\aw_got[0:0]
     7/7: $0\state[1:0]
Creating decoders for process `\uart_axi.$proc$uart_axi.sv:304$65'.
     1/6: $0\reg_intr_state[31:0]
     2/6: $0\reg_data2[31:0]
     3/6: $0\reg_data1[31:0]
     4/6: $0\reg_data0[31:0]
     5/6: $0\reg_intr_enable[31:0]
     6/6: $0\reg_ctrl[31:0]
Creating decoders for process `\uart_axi.$proc$uart_axi.sv:243$57'.
     1/5: $0\rx_complete_pulse[0:0]
     2/5: $0\rx_bit_cnt[2:0]
     3/5: $0\rx_shift[7:0]
     4/5: $0\rx_baud_cnt[31:0]
     5/5: $0\rx_state[1:0]
Creating decoders for process `\uart_axi.$proc$uart_axi.sv:167$48'.
     1/6: $0\uart_tx[0:0]
     2/6: $0\tx_done_pulse[0:0]
     3/6: $0\tx_bit_cnt[2:0]
     4/6: $0\tx_shift[7:0]
     5/6: $0\tx_baud_cnt[31:0]
     6/6: $0\tx_state[1:0]
Creating decoders for process `\uart_axi.$proc$uart_axi.sv:128$35'.
     1/3: $0\rx_s2_prev[0:0]
     2/3: $0\rx_s2[0:0]
     3/3: $0\rx_s1[0:0]
Creating decoders for process `\fv_uart_proto.$proc$fv_uart_proto.sv:0$4'.

3.3.8. Executing PROC_DLATCH pass (convert process syncs to latches).
No latch inferred for signal `\uart_axi.\rd_data_mux' from process `\uart_axi.$proc$uart_axi.sv:0$96'.
No latch inferred for signal `\fv_uart_proto.$formal$fv_uart_proto.sv:49$1_CHECK' from process `\fv_uart_proto.$proc$fv_uart_proto.sv:0$4'.
No latch inferred for signal `\fv_uart_proto.$formal$fv_uart_proto.sv:49$1_EN' from process `\fv_uart_proto.$proc$fv_uart_proto.sv:0$4'.

3.3.9. Executing PROC_DFF pass (convert process syncs to FFs).
Creating register for signal `\uart_axi.$formal$uart_axi.sv:422$15_CHECK' using process `\uart_axi.$proc$uart_axi.sv:421$126'.
  created $dff cell `$procdff$416' with positive edge clock.
Creating register for signal `\uart_axi.$formal$uart_axi.sv:422$15_EN' using process `\uart_axi.$proc$uart_axi.sv:421$126'.
  created $dff cell `$procdff$417' with positive edge clock.
Creating register for signal `\uart_axi.$past$uart_axi.sv:410$8$0' using process `\uart_axi.$proc$uart_axi.sv:407$117'.
  created $dff cell `$procdff$418' with positive edge clock.
Creating register for signal `\uart_axi.$past$uart_axi.sv:413$9$0' using process `\uart_axi.$proc$uart_axi.sv:407$117'.
  created $dff cell `$procdff$419' with positive edge clock.
Creating register for signal `\uart_axi.$formal$uart_axi.sv:410$13_CHECK' using process `\uart_axi.$proc$uart_axi.sv:407$117'.
  created $dff cell `$procdff$420' with positive edge clock.
Creating register for signal `\uart_axi.$formal$uart_axi.sv:410$13_EN' using process `\uart_axi.$proc$uart_axi.sv:407$117'.
  created $dff cell `$procdff$421' with positive edge clock.
Creating register for signal `\uart_axi.$formal$uart_axi.sv:413$14_CHECK' using process `\uart_axi.$proc$uart_axi.sv:407$117'.
  created $dff cell `$procdff$422' with positive edge clock.
Creating register for signal `\uart_axi.$formal$uart_axi.sv:413$14_EN' using process `\uart_axi.$proc$uart_axi.sv:407$117'.
  created $dff cell `$procdff$423' with positive edge clock.
Creating register for signal `\uart_axi.$formal$uart_axi.sv:393$10_CHECK' using process `\uart_axi.$proc$uart_axi.sv:392$101'.
  created $dff cell `$procdff$424' with positive edge clock.
Creating register for signal `\uart_axi.$formal$uart_axi.sv:393$10_EN' using process `\uart_axi.$proc$uart_axi.sv:392$101'.
  created $dff cell `$procdff$425' with positive edge clock.
Creating register for signal `\uart_axi.$formal$uart_axi.sv:395$11_CHECK' using process `\uart_axi.$proc$uart_axi.sv:392$101'.
  created $dff cell `$procdff$426' with positive edge clock.
Creating register for signal `\uart_axi.$formal$uart_axi.sv:395$11_EN' using process `\uart_axi.$proc$uart_axi.sv:392$101'.
  created $dff cell `$procdff$427' with positive edge clock.
Creating register for signal `\uart_axi.$formal$uart_axi.sv:397$12_CHECK' using process `\uart_axi.$proc$uart_axi.sv:392$101'.
  created $dff cell `$procdff$428' with positive edge clock.
Creating register for signal `\uart_axi.$formal$uart_axi.sv:397$12_EN' using process `\uart_axi.$proc$uart_axi.sv:392$101'.
  created $dff cell `$procdff$429' with positive edge clock.
Creating register for signal `\uart_axi.\state' using process `\uart_axi.$proc$uart_axi.sv:340$93'.
  created $adff cell `$procdff$430' with positive edge clock and negative level reset.
Creating register for signal `\uart_axi.\aw_got' using process `\uart_axi.$proc$uart_axi.sv:340$93'.
  created $adff cell `$procdff$431' with positive edge clock and negative level reset.
Creating register for signal `\uart_axi.\w_got' using process `\uart_axi.$proc$uart_axi.sv:340$93'.
  created $adff cell `$procdff$432' with positive edge clock and negative level reset.
Creating register for signal `\uart_axi.\aw_idx_r' using process `\uart_axi.$proc$uart_axi.sv:340$93'.
  created $adff cell `$procdff$433' with positive edge clock and negative level reset.
Creating register for signal `\uart_axi.\w_data_r' using process `\uart_axi.$proc$uart_axi.sv:340$93'.
  created $adff cell `$procdff$434' with positive edge clock and negative level reset.
Creating register for signal `\uart_axi.\w_strb_r' using process `\uart_axi.$proc$uart_axi.sv:340$93'.
  created $adff cell `$procdff$435' with positive edge clock and negative level reset.
Creating register for signal `\uart_axi.\rd_idx_r' using process `\uart_axi.$proc$uart_axi.sv:340$93'.
  created $adff cell `$procdff$436' with positive edge clock and negative level reset.
Creating register for signal `\uart_axi.\reg_ctrl' using process `\uart_axi.$proc$uart_axi.sv:304$65'.
  created $adff cell `$procdff$437' with positive edge clock and negative level reset.
Creating register for signal `\uart_axi.\reg_intr_enable' using process `\uart_axi.$proc$uart_axi.sv:304$65'.
  created $adff cell `$procdff$438' with positive edge clock and negative level reset.
Creating register for signal `\uart_axi.\reg_intr_state' using process `\uart_axi.$proc$uart_axi.sv:304$65'.
  created $adff cell `$procdff$439' with positive edge clock and negative level reset.
Creating register for signal `\uart_axi.\reg_data0' using process `\uart_axi.$proc$uart_axi.sv:304$65'.
  created $adff cell `$procdff$440' with positive edge clock and negative level reset.
Creating register for signal `\uart_axi.\reg_data1' using process `\uart_axi.$proc$uart_axi.sv:304$65'.
  created $adff cell `$procdff$441' with positive edge clock and negative level reset.
Creating register for signal `\uart_axi.\reg_data2' using process `\uart_axi.$proc$uart_axi.sv:304$65'.
  created $adff cell `$procdff$442' with positive edge clock and negative level reset.
Creating register for signal `\uart_axi.\rx_state' using process `\uart_axi.$proc$uart_axi.sv:243$57'.
  created $adff cell `$procdff$443' with positive edge clock and negative level reset.
Creating register for signal `\uart_axi.\rx_baud_cnt' using process `\uart_axi.$proc$uart_axi.sv:243$57'.
  created $adff cell `$procdff$444' with positive edge clock and negative level reset.
Creating register for signal `\uart_axi.\rx_shift' using process `\uart_axi.$proc$uart_axi.sv:243$57'.
  created $adff cell `$procdff$445' with positive edge clock and negative level reset.
Creating register for signal `\uart_axi.\rx_bit_cnt' using process `\uart_axi.$proc$uart_axi.sv:243$57'.
  created $adff cell `$procdff$446' with positive edge clock and negative level reset.
Creating register for signal `\uart_axi.\rx_complete_pulse' using process `\uart_axi.$proc$uart_axi.sv:243$57'.
  created $adff cell `$procdff$447' with positive edge clock and negative level reset.
Creating register for signal `\uart_axi.\uart_tx' using process `\uart_axi.$proc$uart_axi.sv:167$48'.
  created $adff cell `$procdff$448' with positive edge clock and negative level reset.
Creating register for signal `\uart_axi.\tx_state' using process `\uart_axi.$proc$uart_axi.sv:167$48'.
  created $adff cell `$procdff$449' with positive edge clock and negative level reset.
Creating register for signal `\uart_axi.\tx_baud_cnt' using process `\uart_axi.$proc$uart_axi.sv:167$48'.
  created $adff cell `$procdff$450' with positive edge clock and negative level reset.
Creating register for signal `\uart_axi.\tx_shift' using process `\uart_axi.$proc$uart_axi.sv:167$48'.
  created $adff cell `$procdff$451' with positive edge clock and negative level reset.
Creating register for signal `\uart_axi.\tx_bit_cnt' using process `\uart_axi.$proc$uart_axi.sv:167$48'.
  created $adff cell `$procdff$452' with positive edge clock and negative level reset.
Creating register for signal `\uart_axi.\tx_done_pulse' using process `\uart_axi.$proc$uart_axi.sv:167$48'.
  created $adff cell `$procdff$453' with positive edge clock and negative level reset.
Creating register for signal `\uart_axi.\rx_s1' using process `\uart_axi.$proc$uart_axi.sv:128$35'.
  created $adff cell `$procdff$454' with positive edge clock and negative level reset.
Creating register for signal `\uart_axi.\rx_s2' using process `\uart_axi.$proc$uart_axi.sv:128$35'.
  created $adff cell `$procdff$455' with positive edge clock and negative level reset.
Creating register for signal `\uart_axi.\rx_s2_prev' using process `\uart_axi.$proc$uart_axi.sv:128$35'.
  created $adff cell `$procdff$456' with positive edge clock and negative level reset.

3.3.10. Executing PROC_MEMWR pass (convert process memory writes to cells).

3.3.11. Executing PROC_CLEAN pass (remove empty switches from decision trees).
Removing empty process `uart_axi.$proc$uart_axi.sv:0$146'.
Removing empty process `uart_axi.$proc$uart_axi.sv:0$144'.
Removing empty process `uart_axi.$proc$uart_axi.sv:0$142'.
Removing empty process `uart_axi.$proc$uart_axi.sv:0$140'.
Removing empty process `uart_axi.$proc$uart_axi.sv:0$138'.
Removing empty process `uart_axi.$proc$uart_axi.sv:0$136'.
Found and cleaned up 1 empty switch in `\uart_axi.$proc$uart_axi.sv:421$126'.
Removing empty process `uart_axi.$proc$uart_axi.sv:421$126'.
Found and cleaned up 3 empty switches in `\uart_axi.$proc$uart_axi.sv:407$117'.
Removing empty process `uart_axi.$proc$uart_axi.sv:407$117'.
Found and cleaned up 1 empty switch in `\uart_axi.$proc$uart_axi.sv:392$101'.
Removing empty process `uart_axi.$proc$uart_axi.sv:392$101'.
Found and cleaned up 1 empty switch in `\uart_axi.$proc$uart_axi.sv:0$96'.
Removing empty process `uart_axi.$proc$uart_axi.sv:0$96'.
Found and cleaned up 7 empty switches in `\uart_axi.$proc$uart_axi.sv:340$93'.
Removing empty process `uart_axi.$proc$uart_axi.sv:340$93'.
Found and cleaned up 3 empty switches in `\uart_axi.$proc$uart_axi.sv:304$65'.
Removing empty process `uart_axi.$proc$uart_axi.sv:304$65'.
Found and cleaned up 6 empty switches in `\uart_axi.$proc$uart_axi.sv:243$57'.
Removing empty process `uart_axi.$proc$uart_axi.sv:243$57'.
Found and cleaned up 6 empty switches in `\uart_axi.$proc$uart_axi.sv:167$48'.
Removing empty process `uart_axi.$proc$uart_axi.sv:167$48'.
Removing empty process `uart_axi.$proc$uart_axi.sv:128$35'.
Removing empty process `fv_uart_proto.$proc$fv_uart_proto.sv:0$4'.
Cleaned up 28 empty switches.

3.3.12. Executing OPT_EXPR pass (perform const folding).
Optimizing module uart_axi.
<suppressed ~27 debug messages>
Optimizing module fv_uart_proto.

3.4. Executing OPT_EXPR pass (perform const folding).
Optimizing module uart_axi.
Optimizing module fv_uart_proto.

3.5. Executing OPT_CLEAN pass (remove unused cells and wires).
Finding unused cells or wires in module \uart_axi..
Finding unused cells or wires in module \fv_uart_proto..
Removed 5 unused cells and 148 unused wires.
<suppressed ~7 debug messages>

3.6. Executing CHECK pass (checking for obvious problems).
Checking module fv_uart_proto...
Warning: Wire fv_uart_proto.\uart_rx is used but has no driver.
Warning: Wire fv_uart_proto.\WVALID is used but has no driver.
Warning: Wire fv_uart_proto.\WSTRB [3] is used but has no driver.
Warning: Wire fv_uart_proto.\WSTRB [2] is used but has no driver.
Warning: Wire fv_uart_proto.\WSTRB [1] is used but has no driver.
Warning: Wire fv_uart_proto.\WSTRB [0] is used but has no driver.
Warning: Wire fv_uart_proto.\WDATA [31] is used but has no driver.
Warning: Wire fv_uart_proto.\WDATA [30] is used but has no driver.
Warning: Wire fv_uart_proto.\WDATA [29] is used but has no driver.
Warning: Wire fv_uart_proto.\WDATA [28] is used but has no driver.
Warning: Wire fv_uart_proto.\WDATA [27] is used but has no driver.
Warning: Wire fv_uart_proto.\WDATA [26] is used but has no driver.
Warning: Wire fv_uart_proto.\WDATA [25] is used but has no driver.
Warning: Wire fv_uart_proto.\WDATA [24] is used but has no driver.
Warning: Wire fv_uart_proto.\WDATA [23] is used but has no driver.
Warning: Wire fv_uart_proto.\WDATA [22] is used but has no driver.
Warning: Wire fv_uart_proto.\WDATA [21] is used but has no driver.
Warning: Wire fv_uart_proto.\WDATA [20] is used but has no driver.
Warning: Wire fv_uart_proto.\WDATA [19] is used but has no driver.
Warning: Wire fv_uart_proto.\WDATA [18] is used but has no driver.
Warning: Wire fv_uart_proto.\WDATA [17] is used but has no driver.
Warning: Wire fv_uart_proto.\WDATA [16] is used but has no driver.
Warning: Wire fv_uart_proto.\WDATA [15] is used but has no driver.
Warning: Wire fv_uart_proto.\WDATA [14] is used but has no driver.
Warning: Wire fv_uart_proto.\WDATA [13] is used but has no driver.
Warning: Wire fv_uart_proto.\WDATA [12] is used but has no driver.
Warning: Wire fv_uart_proto.\WDATA [11] is used but has no driver.
Warning: Wire fv_uart_proto.\WDATA [10] is used but has no driver.
Warning: Wire fv_uart_proto.\WDATA [9] is used but has no driver.
Warning: Wire fv_uart_proto.\WDATA [8] is used but has no driver.
Warning: Wire fv_uart_proto.\WDATA [7] is used but has no driver.
Warning: Wire fv_uart_proto.\WDATA [6] is used but has no driver.
Warning: Wire fv_uart_proto.\WDATA [5] is used but has no driver.
Warning: Wire fv_uart_proto.\WDATA [4] is used but has no driver.
Warning: Wire fv_uart_proto.\WDATA [3] is used but has no driver.
Warning: Wire fv_uart_proto.\WDATA [2] is used but has no driver.
Warning: Wire fv_uart_proto.\WDATA [1] is used but has no driver.
Warning: Wire fv_uart_proto.\WDATA [0] is used but has no driver.
Warning: Wire fv_uart_proto.\RREADY is used but has no driver.
Warning: Wire fv_uart_proto.\BREADY is used but has no driver.
Warning: Wire fv_uart_proto.\AWVALID is used but has no driver.
Warning: Wire fv_uart_proto.\AWPROT [2] is used but has no driver.
Warning: Wire fv_uart_proto.\AWPROT [1] is used but has no driver.
Warning: Wire fv_uart_proto.\AWPROT [0] is used but has no driver.
Warning: Wire fv_uart_proto.\AWADDR [31] is used but has no driver.
Warning: Wire fv_uart_proto.\AWADDR [30] is used but has no driver.
Warning: Wire fv_uart_proto.\AWADDR [29] is used but has no driver.
Warning: Wire fv_uart_proto.\AWADDR [28] is used but has no driver.
Warning: Wire fv_uart_proto.\AWADDR [27] is used but has no driver.
Warning: Wire fv_uart_proto.\AWADDR [26] is used but has no driver.
Warning: Wire fv_uart_proto.\AWADDR [25] is used but has no driver.
Warning: Wire fv_uart_proto.\AWADDR [24] is used but has no driver.
Warning: Wire fv_uart_proto.\AWADDR [23] is used but has no driver.
Warning: Wire fv_uart_proto.\AWADDR [22] is used but has no driver.
Warning: Wire fv_uart_proto.\AWADDR [21] is used but has no driver.
Warning: Wire fv_uart_proto.\AWADDR [20] is used but has no driver.
Warning: Wire fv_uart_proto.\AWADDR [19] is used but has no driver.
Warning: Wire fv_uart_proto.\AWADDR [18] is used but has no driver.
Warning: Wire fv_uart_proto.\AWADDR [17] is used but has no driver.
Warning: Wire fv_uart_proto.\AWADDR [16] is used but has no driver.
Warning: Wire fv_uart_proto.\AWADDR [15] is used but has no driver.
Warning: Wire fv_uart_proto.\AWADDR [14] is used but has no driver.
Warning: Wire fv_uart_proto.\AWADDR [13] is used but has no driver.
Warning: Wire fv_uart_proto.\AWADDR [12] is used but has no driver.
Warning: Wire fv_uart_proto.\AWADDR [11] is used but has no driver.
Warning: Wire fv_uart_proto.\AWADDR [10] is used but has no driver.
Warning: Wire fv_uart_proto.\AWADDR [9] is used but has no driver.
Warning: Wire fv_uart_proto.\AWADDR [8] is used but has no driver.
Warning: Wire fv_uart_proto.\AWADDR [7] is used but has no driver.
Warning: Wire fv_uart_proto.\AWADDR [6] is used but has no driver.
Warning: Wire fv_uart_proto.\AWADDR [5] is used but has no driver.
Warning: Wire fv_uart_proto.\AWADDR [4] is used but has no driver.
Warning: Wire fv_uart_proto.\AWADDR [3] is used but has no driver.
Warning: Wire fv_uart_proto.\AWADDR [2] is used but has no driver.
Warning: Wire fv_uart_proto.\AWADDR [1] is used but has no driver.
Warning: Wire fv_uart_proto.\AWADDR [0] is used but has no driver.
Warning: Wire fv_uart_proto.\ARVALID is used but has no driver.
Warning: Wire fv_uart_proto.\ARPROT [2] is used but has no driver.
Warning: Wire fv_uart_proto.\ARPROT [1] is used but has no driver.
Warning: Wire fv_uart_proto.\ARPROT [0] is used but has no driver.
Warning: Wire fv_uart_proto.\ARADDR [31] is used but has no driver.
Warning: Wire fv_uart_proto.\ARADDR [30] is used but has no driver.
Warning: Wire fv_uart_proto.\ARADDR [29] is used but has no driver.
Warning: Wire fv_uart_proto.\ARADDR [28] is used but has no driver.
Warning: Wire fv_uart_proto.\ARADDR [27] is used but has no driver.
Warning: Wire fv_uart_proto.\ARADDR [26] is used but has no driver.
Warning: Wire fv_uart_proto.\ARADDR [25] is used but has no driver.
Warning: Wire fv_uart_proto.\ARADDR [24] is used but has no driver.
Warning: Wire fv_uart_proto.\ARADDR [23] is used but has no driver.
Warning: Wire fv_uart_proto.\ARADDR [22] is used but has no driver.
Warning: Wire fv_uart_proto.\ARADDR [21] is used but has no driver.
Warning: Wire fv_uart_proto.\ARADDR [20] is used but has no driver.
Warning: Wire fv_uart_proto.\ARADDR [19] is used but has no driver.
Warning: Wire fv_uart_proto.\ARADDR [18] is used but has no driver.
Warning: Wire fv_uart_proto.\ARADDR [17] is used but has no driver.
Warning: Wire fv_uart_proto.\ARADDR [16] is used but has no driver.
Warning: Wire fv_uart_proto.\ARADDR [15] is used but has no driver.
Warning: Wire fv_uart_proto.\ARADDR [14] is used but has no driver.
Warning: Wire fv_uart_proto.\ARADDR [13] is used but has no driver.
Warning: Wire fv_uart_proto.\ARADDR [12] is used but has no driver.
Warning: Wire fv_uart_proto.\ARADDR [11] is used but has no driver.
Warning: Wire fv_uart_proto.\ARADDR [10] is used but has no driver.
Warning: Wire fv_uart_proto.\ARADDR [9] is used but has no driver.
Warning: Wire fv_uart_proto.\ARADDR [8] is used but has no driver.
Warning: Wire fv_uart_proto.\ARADDR [7] is used but has no driver.
Warning: Wire fv_uart_proto.\ARADDR [6] is used but has no driver.
Warning: Wire fv_uart_proto.\ARADDR [5] is used but has no driver.
Warning: Wire fv_uart_proto.\ARADDR [4] is used but has no driver.
Warning: Wire fv_uart_proto.\ARADDR [3] is used but has no driver.
Warning: Wire fv_uart_proto.\ARADDR [2] is used but has no driver.
Warning: Wire fv_uart_proto.\ARADDR [1] is used but has no driver.
Warning: Wire fv_uart_proto.\ARADDR [0] is used but has no driver.
Checking module uart_axi...
Found and reported 112 problems.

3.7. Executing OPT pass (performing simple optimizations).

3.7.1. Executing OPT_EXPR pass (perform const folding).
Optimizing module fv_uart_proto.
Optimizing module uart_axi.

3.7.2. Executing OPT_MERGE pass (detect identical cells).
Finding identical cells in module `\fv_uart_proto'.
Finding identical cells in module `\uart_axi'.
<suppressed ~162 debug messages>
Removed a total of 54 cells.

3.7.3. Executing OPT_MUXTREE pass (detect dead branches in mux trees).
Running muxtree optimizer on module \fv_uart_proto..
  Creating internal representation of mux trees.
  No muxes found in this module.
Running muxtree optimizer on module \uart_axi..
  Creating internal representation of mux trees.
  Evaluating internal representation of mux trees.
  Analyzing evaluation results.
Removed 0 multiplexer ports.
<suppressed ~40 debug messages>

3.7.4. Executing OPT_REDUCE pass (consolidate $*mux and $reduce_* inputs).
  Optimizing cells in module \fv_uart_proto.
  Optimizing cells in module \uart_axi.
Performed a total of 0 changes.

3.7.5. Executing OPT_MERGE pass (detect identical cells).
Finding identical cells in module `\fv_uart_proto'.
Finding identical cells in module `\uart_axi'.
<suppressed ~36 debug messages>
Removed a total of 12 cells.

3.7.6. Executing OPT_CLEAN pass (remove unused cells and wires).
Finding unused cells or wires in module \fv_uart_proto..
Finding unused cells or wires in module \uart_axi..
Removed 0 unused cells and 66 unused wires.
<suppressed ~1 debug messages>

3.7.7. Executing OPT_EXPR pass (perform const folding).
Optimizing module fv_uart_proto.
Optimizing module uart_axi.

3.7.8. Rerunning OPT passes. (Maybe there is more to do..)

3.7.9. Executing OPT_MUXTREE pass (detect dead branches in mux trees).
Running muxtree optimizer on module \fv_uart_proto..
  Creating internal representation of mux trees.
  No muxes found in this module.
Running muxtree optimizer on module \uart_axi..
  Creating internal representation of mux trees.
  Evaluating internal representation of mux trees.
  Analyzing evaluation results.
Removed 0 multiplexer ports.
<suppressed ~37 debug messages>

3.7.10. Executing OPT_REDUCE pass (consolidate $*mux and $reduce_* inputs).
  Optimizing cells in module \fv_uart_proto.
  Optimizing cells in module \uart_axi.
    New ctrl vector for $pmux cell $procmux$310: { $procmux$300_CMP $procmux$319_CMP $auto$opt_reduce.cc:134:opt_pmux$458 }
    New ctrl vector for $pmux cell $procmux$384: { $procmux$354_CMP $auto$opt_reduce.cc:134:opt_pmux$460 }
  Optimizing cells in module \uart_axi.
Performed a total of 2 changes.

3.7.11. Executing OPT_MERGE pass (detect identical cells).
Finding identical cells in module `\fv_uart_proto'.
Finding identical cells in module `\uart_axi'.
Removed a total of 0 cells.

3.7.12. Executing OPT_CLEAN pass (remove unused cells and wires).
Finding unused cells or wires in module \fv_uart_proto..
Finding unused cells or wires in module \uart_axi..

3.7.13. Executing OPT_EXPR pass (perform const folding).
Optimizing module fv_uart_proto.
Optimizing module uart_axi.

3.7.14. Rerunning OPT passes. (Maybe there is more to do..)

3.7.15. Executing OPT_MUXTREE pass (detect dead branches in mux trees).
Running muxtree optimizer on module \fv_uart_proto..
  Creating internal representation of mux trees.
  No muxes found in this module.
Running muxtree optimizer on module \uart_axi..
  Creating internal representation of mux trees.
  Evaluating internal representation of mux trees.
  Analyzing evaluation results.
Removed 0 multiplexer ports.
<suppressed ~37 debug messages>

3.7.16. Executing OPT_REDUCE pass (consolidate $*mux and $reduce_* inputs).
  Optimizing cells in module \fv_uart_proto.
  Optimizing cells in module \uart_axi.
Performed a total of 0 changes.

3.7.17. Executing OPT_MERGE pass (detect identical cells).
Finding identical cells in module `\fv_uart_proto'.
Finding identical cells in module `\uart_axi'.
Removed a total of 0 cells.

3.7.18. Executing OPT_CLEAN pass (remove unused cells and wires).
Finding unused cells or wires in module \fv_uart_proto..
Finding unused cells or wires in module \uart_axi..

3.7.19. Executing OPT_EXPR pass (perform const folding).
Optimizing module fv_uart_proto.
Optimizing module uart_axi.

3.7.20. Finished OPT passes. (There is nothing left to do.)

3.8. Executing WREDUCE pass (reducing word size of cells).
Removed top 3 bits (of 6) from port B of cell uart_axi.$eq$uart_axi.sv:162$43 ($eq).
Removed top 31 bits (of 32) from port B of cell uart_axi.$add$uart_axi.sv:194$50 ($add).
Removed top 2 bits (of 3) from port B of cell uart_axi.$add$uart_axi.sv:205$52 ($add).
Removed top 1 bits (of 32) from port B of cell uart_axi.$eq$uart_axi.sv:238$56 ($eq).
Removed top 31 bits (of 32) from port B of cell uart_axi.$add$uart_axi.sv:266$60 ($add).
Removed top 2 bits (of 3) from port B of cell uart_axi.$add$uart_axi.sv:275$62 ($add).
Removed top 30 bits (of 32) from port B of cell uart_axi.$or$uart_axi.sv:314$67 ($or).
Removed top 1 bits (of 2) from port B of cell uart_axi.$eq$uart_axi.sv:381$97 ($eq).
Removed top 1 bits (of 2) from port B of cell uart_axi.$ne$uart_axi.sv:397$111 ($ne).
Removed top 3 bits (of 6) from port B of cell uart_axi.$procmux$183_CMP0 ($eq).
Removed top 3 bits (of 6) from port B of cell uart_axi.$procmux$184_CMP0 ($eq).
Removed top 3 bits (of 6) from port B of cell uart_axi.$procmux$185_CMP0 ($eq).
Removed top 4 bits (of 6) from port B of cell uart_axi.$procmux$186_CMP0 ($eq).
Removed top 4 bits (of 6) from port B of cell uart_axi.$procmux$187_CMP0 ($eq).
Removed top 5 bits (of 6) from port B of cell uart_axi.$procmux$188_CMP0 ($eq).
Removed top 3 bits (of 6) from port B of cell uart_axi.$procmux$252_CMP0 ($eq).
Removed top 4 bits (of 6) from port B of cell uart_axi.$procmux$253_CMP0 ($eq).
Removed top 3 bits (of 6) from port B of cell uart_axi.$procmux$264_CMP0 ($eq).
Removed top 4 bits (of 6) from port B of cell uart_axi.$procmux$272_CMP0 ($eq).
Removed top 1 bits (of 2) from port B of cell uart_axi.$procmux$319_CMP0 ($eq).
Removed top 1 bits (of 2) from port B of cell uart_axi.$procmux$351_CMP0 ($eq).
Removed top 1 bits (of 32) from wire uart_axi.baud_half.
Removed top 30 bits (of 32) from wire uart_axi.irq_src_set.
Removed top 30 bits (of 32) from wire uart_axi.status_w.
Removed top 1 bits (of 8) from wire uart_axi.tx_shift_shr.

3.9. Executing OPT_CLEAN pass (remove unused cells and wires).
Finding unused cells or wires in module \fv_uart_proto..
Finding unused cells or wires in module \uart_axi..
Removed 0 unused cells and 4 unused wires.
<suppressed ~1 debug messages>

3.10. Executing MEMORY_COLLECT pass (generating $mem cells).

3.11. Executing OPT pass (performing simple optimizations).

3.11.1. Executing OPT_EXPR pass (perform const folding).
Optimizing module fv_uart_proto.
Optimizing module uart_axi.

3.11.2. Executing OPT_MERGE pass (detect identical cells).
Finding identical cells in module `\fv_uart_proto'.
Finding identical cells in module `\uart_axi'.
Removed a total of 0 cells.

3.11.3. Executing OPT_CLEAN pass (remove unused cells and wires).
Finding unused cells or wires in module \fv_uart_proto..
Finding unused cells or wires in module \uart_axi..

3.11.4. Finished fast OPT passes.

3.12. Printing statistics.

=== fv_uart_proto ===

   Number of wires:                 26
   Number of wire bits:            159
   Number of public wires:          24
   Number of public wire bits:     157
   Number of memories:               0
   Number of memory bits:            0
   Number of processes:              0
   Number of cells:                  4
     $assume                         1
     $initstate                      1
     $logic_not                      1
     uart_axi                        1

=== uart_axi ===

   Number of wires:                234
   Number of wire bits:           2055
   Number of public wires:          80
   Number of public wire bits:     726
   Number of memories:               0
   Number of memory bits:            0
   Number of processes:              0
   Number of cells:                209
     $add                            4
     $adff                          27
     $and                            8
     $assert                         6
     $dff                           11
     $eq                            25
     $le                             1
     $logic_and                     12
     $logic_not                     10
     $logic_or                       5
     $mux                           73
     $ne                             2
     $not                            4
     $or                             6
     $pmux                          11
     $reduce_bool                    1
     $reduce_or                      3

=== design hierarchy ===

   fv_uart_proto                     1
     uart_axi                        1

   Number of wires:                260
   Number of wire bits:           2214
   Number of public wires:         104
   Number of public wire bits:     883
   Number of memories:               0
   Number of memory bits:            0
   Number of processes:              0
   Number of cells:                212
     $add                            4
     $adff                          27
     $and                            8
     $assert                         6
     $assume                         1
     $dff                           11
     $eq                            25
     $initstate                      1
     $le                             1
     $logic_and                     12
     $logic_not                     11
     $logic_or                       5
     $mux                           73
     $ne                             2
     $not                            4
     $or                             6
     $pmux                          11
     $reduce_bool                    1
     $reduce_or                      3

3.13. Executing CHECK pass (checking for obvious problems).
Checking module fv_uart_proto...
Warning: Wire fv_uart_proto.\uart_rx is used but has no driver.
Warning: Wire fv_uart_proto.\WVALID is used but has no driver.
Warning: Wire fv_uart_proto.\WSTRB [3] is used but has no driver.
Warning: Wire fv_uart_proto.\WSTRB [2] is used but has no driver.
Warning: Wire fv_uart_proto.\WSTRB [1] is used but has no driver.
Warning: Wire fv_uart_proto.\WSTRB [0] is used but has no driver.
Warning: Wire fv_uart_proto.\WDATA [31] is used but has no driver.
Warning: Wire fv_uart_proto.\WDATA [30] is used but has no driver.
Warning: Wire fv_uart_proto.\WDATA [29] is used but has no driver.
Warning: Wire fv_uart_proto.\WDATA [28] is used but has no driver.
Warning: Wire fv_uart_proto.\WDATA [27] is used but has no driver.
Warning: Wire fv_uart_proto.\WDATA [26] is used but has no driver.
Warning: Wire fv_uart_proto.\WDATA [25] is used but has no driver.
Warning: Wire fv_uart_proto.\WDATA [24] is used but has no driver.
Warning: Wire fv_uart_proto.\WDATA [23] is used but has no driver.
Warning: Wire fv_uart_proto.\WDATA [22] is used but has no driver.
Warning: Wire fv_uart_proto.\WDATA [21] is used but has no driver.
Warning: Wire fv_uart_proto.\WDATA [20] is used but has no driver.
Warning: Wire fv_uart_proto.\WDATA [19] is used but has no driver.
Warning: Wire fv_uart_proto.\WDATA [18] is used but has no driver.
Warning: Wire fv_uart_proto.\WDATA [17] is used but has no driver.
Warning: Wire fv_uart_proto.\WDATA [16] is used but has no driver.
Warning: Wire fv_uart_proto.\WDATA [15] is used but has no driver.
Warning: Wire fv_uart_proto.\WDATA [14] is used but has no driver.
Warning: Wire fv_uart_proto.\WDATA [13] is used but has no driver.
Warning: Wire fv_uart_proto.\WDATA [12] is used but has no driver.
Warning: Wire fv_uart_proto.\WDATA [11] is used but has no driver.
Warning: Wire fv_uart_proto.\WDATA [10] is used but has no driver.
Warning: Wire fv_uart_proto.\WDATA [9] is used but has no driver.
Warning: Wire fv_uart_proto.\WDATA [8] is used but has no driver.
Warning: Wire fv_uart_proto.\WDATA [7] is used but has no driver.
Warning: Wire fv_uart_proto.\WDATA [6] is used but has no driver.
Warning: Wire fv_uart_proto.\WDATA [5] is used but has no driver.
Warning: Wire fv_uart_proto.\WDATA [4] is used but has no driver.
Warning: Wire fv_uart_proto.\WDATA [3] is used but has no driver.
Warning: Wire fv_uart_proto.\WDATA [2] is used but has no driver.
Warning: Wire fv_uart_proto.\WDATA [1] is used but has no driver.
Warning: Wire fv_uart_proto.\WDATA [0] is used but has no driver.
Warning: Wire fv_uart_proto.\RREADY is used but has no driver.
Warning: Wire fv_uart_proto.\BREADY is used but has no driver.
Warning: Wire fv_uart_proto.\AWVALID is used but has no driver.
Warning: Wire fv_uart_proto.\AWPROT [2] is used but has no driver.
Warning: Wire fv_uart_proto.\AWPROT [1] is used but has no driver.
Warning: Wire fv_uart_proto.\AWPROT [0] is used but has no driver.
Warning: Wire fv_uart_proto.\AWADDR [31] is used but has no driver.
Warning: Wire fv_uart_proto.\AWADDR [30] is used but has no driver.
Warning: Wire fv_uart_proto.\AWADDR [29] is used but has no driver.
Warning: Wire fv_uart_proto.\AWADDR [28] is used but has no driver.
Warning: Wire fv_uart_proto.\AWADDR [27] is used but has no driver.
Warning: Wire fv_uart_proto.\AWADDR [26] is used but has no driver.
Warning: Wire fv_uart_proto.\AWADDR [25] is used but has no driver.
Warning: Wire fv_uart_proto.\AWADDR [24] is used but has no driver.
Warning: Wire fv_uart_proto.\AWADDR [23] is used but has no driver.
Warning: Wire fv_uart_proto.\AWADDR [22] is used but has no driver.
Warning: Wire fv_uart_proto.\AWADDR [21] is used but has no driver.
Warning: Wire fv_uart_proto.\AWADDR [20] is used but has no driver.
Warning: Wire fv_uart_proto.\AWADDR [19] is used but has no driver.
Warning: Wire fv_uart_proto.\AWADDR [18] is used but has no driver.
Warning: Wire fv_uart_proto.\AWADDR [17] is used but has no driver.
Warning: Wire fv_uart_proto.\AWADDR [16] is used but has no driver.
Warning: Wire fv_uart_proto.\AWADDR [15] is used but has no driver.
Warning: Wire fv_uart_proto.\AWADDR [14] is used but has no driver.
Warning: Wire fv_uart_proto.\AWADDR [13] is used but has no driver.
Warning: Wire fv_uart_proto.\AWADDR [12] is used but has no driver.
Warning: Wire fv_uart_proto.\AWADDR [11] is used but has no driver.
Warning: Wire fv_uart_proto.\AWADDR [10] is used but has no driver.
Warning: Wire fv_uart_proto.\AWADDR [9] is used but has no driver.
Warning: Wire fv_uart_proto.\AWADDR [8] is used but has no driver.
Warning: Wire fv_uart_proto.\AWADDR [7] is used but has no driver.
Warning: Wire fv_uart_proto.\AWADDR [6] is used but has no driver.
Warning: Wire fv_uart_proto.\AWADDR [5] is used but has no driver.
Warning: Wire fv_uart_proto.\AWADDR [4] is used but has no driver.
Warning: Wire fv_uart_proto.\AWADDR [3] is used but has no driver.
Warning: Wire fv_uart_proto.\AWADDR [2] is used but has no driver.
Warning: Wire fv_uart_proto.\AWADDR [1] is used but has no driver.
Warning: Wire fv_uart_proto.\AWADDR [0] is used but has no driver.
Warning: Wire fv_uart_proto.\ARVALID is used but has no driver.
Warning: Wire fv_uart_proto.\ARPROT [2] is used but has no driver.
Warning: Wire fv_uart_proto.\ARPROT [1] is used but has no driver.
Warning: Wire fv_uart_proto.\ARPROT [0] is used but has no driver.
Warning: Wire fv_uart_proto.\ARADDR [31] is used but has no driver.
Warning: Wire fv_uart_proto.\ARADDR [30] is used but has no driver.
Warning: Wire fv_uart_proto.\ARADDR [29] is used but has no driver.
Warning: Wire fv_uart_proto.\ARADDR [28] is used but has no driver.
Warning: Wire fv_uart_proto.\ARADDR [27] is used but has no driver.
Warning: Wire fv_uart_proto.\ARADDR [26] is used but has no driver.
Warning: Wire fv_uart_proto.\ARADDR [25] is used but has no driver.
Warning: Wire fv_uart_proto.\ARADDR [24] is used but has no driver.
Warning: Wire fv_uart_proto.\ARADDR [23] is used but has no driver.
Warning: Wire fv_uart_proto.\ARADDR [22] is used but has no driver.
Warning: Wire fv_uart_proto.\ARADDR [21] is used but has no driver.
Warning: Wire fv_uart_proto.\ARADDR [20] is used but has no driver.
Warning: Wire fv_uart_proto.\ARADDR [19] is used but has no driver.
Warning: Wire fv_uart_proto.\ARADDR [18] is used but has no driver.
Warning: Wire fv_uart_proto.\ARADDR [17] is used but has no driver.
Warning: Wire fv_uart_proto.\ARADDR [16] is used but has no driver.
Warning: Wire fv_uart_proto.\ARADDR [15] is used but has no driver.
Warning: Wire fv_uart_proto.\ARADDR [14] is used but has no driver.
Warning: Wire fv_uart_proto.\ARADDR [13] is used but has no driver.
Warning: Wire fv_uart_proto.\ARADDR [12] is used but has no driver.
Warning: Wire fv_uart_proto.\ARADDR [11] is used but has no driver.
Warning: Wire fv_uart_proto.\ARADDR [10] is used but has no driver.
Warning: Wire fv_uart_proto.\ARADDR [9] is used but has no driver.
Warning: Wire fv_uart_proto.\ARADDR [8] is used but has no driver.
Warning: Wire fv_uart_proto.\ARADDR [7] is used but has no driver.
Warning: Wire fv_uart_proto.\ARADDR [6] is used but has no driver.
Warning: Wire fv_uart_proto.\ARADDR [5] is used but has no driver.
Warning: Wire fv_uart_proto.\ARADDR [4] is used but has no driver.
Warning: Wire fv_uart_proto.\ARADDR [3] is used but has no driver.
Warning: Wire fv_uart_proto.\ARADDR [2] is used but has no driver.
Warning: Wire fv_uart_proto.\ARADDR [1] is used but has no driver.
Warning: Wire fv_uart_proto.\ARADDR [0] is used but has no driver.
Checking module uart_axi...
Found and reported 112 problems.

4. Executing HIERARCHY pass (managing design hierarchy).

4.1. Analyzing design hierarchy..
Top module:  \fv_uart_proto
Used module:     \uart_axi

4.2. Analyzing design hierarchy..
Top module:  \fv_uart_proto
Used module:     \uart_axi
Removed 0 unused modules.
Module fv_uart_proto directly or indirectly contains formal properties -> setting "keep" attribute.
Module uart_axi directly or indirectly contains formal properties -> setting "keep" attribute.

5. Executing jny backend.

6. Executing RTLIL backend.
Output filename: ../model/design.il

Warnings: 112 unique messages, 224 total
End of script. Logfile hash: 671a154964, CPU: user 0.16s system 0.01s, MEM: 14.66 MB peak
Yosys 0.33 (git sha1 2584903a060)
Time spent: 24% 6x opt_clean (0 sec), 19% 7x opt_expr (0 sec), ...
