
 /----------------------------------------------------------------------------\
 |                                                                            |
 |  yosys -- Yosys Open SYnthesis Suite                                       |
 |                                                                            |
 |  Copyright (C) 2012 - 2020  Claire Xenia Wolf <claire@yosyshq.com>         |
 |                                                                            |
 |  Permission to use, copy, modify, and/or distribute this software for any  |
 |  purpose with or without fee is hereby granted, provided that the above    |
 |  copyright notice and this permission notice appear in all copies.         |
 |                                                                            |
 |  THE SOFTWARE IS PROVIDED "AS IS" AND THE AUTHOR DISCLAIMS ALL WARRANTIES  |
 |  WITH REGARD TO THIS SOFTWARE INCLUDING ALL IMPLIED WARRANTIES OF          |
 |  MERCHANTABILITY AND FITNESS. IN NO EVENT SHALL THE AUTHOR BE LIABLE FOR   |
 |  ANY SPECIAL, DIRECT, INDIRECT, OR CONSEQUENTIAL DAMAGES OR ANY DAMAGES    |
 |  WHATSOEVER RESULTING FROM LOSS OF USE, DATA OR PROFITS, WHETHER IN AN     |
 |  ACTION OF CONTRACT, NEGLIGENCE OR OTHER TORTIOUS ACTION, ARISING OUT OF   |
 |  OR IN CONNECTION WITH THE USE OR PERFORMANCE OF THIS SOFTWARE.            |
 |                                                                            |
 \----------------------------------------------------------------------------/

 Yosys 0.33 (git sha1 2584903a060)


-- Executing script file `design_prep.ys' --

1. Executing RTLIL frontend.
Input filename: design.il

2. Executing SCC pass (detecting logic loops).
Found 0 SCCs in module fv_axi_handshake.
Found 0 SCCs in module axi_interface.
Found 0 SCCs.

3. Executing SIMPLEMAP pass (map simple cells to gate primitives).

4. Executing MEMORY_NORDFF pass (extracting $dff cells from memories).

5. Executing ASYNC2SYNC pass.
Replacing axi_interface.$procdff$182 ($adff): ARST=\rst_n, D=$0\size_r[1:0], Q=\size_r
Replacing axi_interface.$procdff$181 ($adff): ARST=\rst_n, D=$0\wdata_r[31:0], Q=\wdata_r
Replacing axi_interface.$procdff$180 ($adff): ARST=\rst_n, D=$0\addr_r[31:0], Q=\addr_r
Replacing axi_interface.$procdff$179 ($adff): ARST=\rst_n, D=$0\w_done[0:0], Q=\w_done
Replacing axi_interface.$procdff$178 ($adff): ARST=\rst_n, D=$0\aw_done[0:0], Q=\aw_done
Replacing axi_interface.$procdff$177 ($adff): ARST=\rst_n, D=$0\state[2:0], Q=\state

6. Executing OPT_CLEAN pass (remove unused cells and wires).
Finding unused cells or wires in module \fv_axi_handshake..
Finding unused cells or wires in module \axi_interface..

7. Executing FORMALFF pass.

8. Executing OPT_CLEAN pass (remove unused cells and wires).
Finding unused cells or wires in module \axi_interface..
Finding unused cells or wires in module \fv_axi_handshake..
Removed 2 unused cells and 2 unused wires.
<suppressed ~4 debug messages>

9. Executing CHECK pass (checking for obvious problems).
Checking module axi_interface...
Checking module fv_axi_handshake...
Warning: Wire fv_axi_handshake.\axi_req_we is used but has no driver.
Warning: Wire fv_axi_handshake.\axi_req_wdata [31] is used but has no driver.
Warning: Wire fv_axi_handshake.\axi_req_wdata [30] is used but has no driver.
Warning: Wire fv_axi_handshake.\axi_req_wdata [29] is used but has no driver.
Warning: Wire fv_axi_handshake.\axi_req_wdata [28] is used but has no driver.
Warning: Wire fv_axi_handshake.\axi_req_wdata [27] is used but has no driver.
Warning: Wire fv_axi_handshake.\axi_req_wdata [26] is used but has no driver.
Warning: Wire fv_axi_handshake.\axi_req_wdata [25] is used but has no driver.
Warning: Wire fv_axi_handshake.\axi_req_wdata [24] is used but has no driver.
Warning: Wire fv_axi_handshake.\axi_req_wdata [23] is used but has no driver.
Warning: Wire fv_axi_handshake.\axi_req_wdata [22] is used but has no driver.
Warning: Wire fv_axi_handshake.\axi_req_wdata [21] is used but has no driver.
Warning: Wire fv_axi_handshake.\axi_req_wdata [20] is used but has no driver.
Warning: Wire fv_axi_handshake.\axi_req_wdata [19] is used but has no driver.
Warning: Wire fv_axi_handshake.\axi_req_wdata [18] is used but has no driver.
Warning: Wire fv_axi_handshake.\axi_req_wdata [17] is used but has no driver.
Warning: Wire fv_axi_handshake.\axi_req_wdata [16] is used but has no driver.
Warning: Wire fv_axi_handshake.\axi_req_wdata [15] is used but has no driver.
Warning: Wire fv_axi_handshake.\axi_req_wdata [14] is used but has no driver.
Warning: Wire fv_axi_handshake.\axi_req_wdata [13] is used but has no driver.
Warning: Wire fv_axi_handshake.\axi_req_wdata [12] is used but has no driver.
Warning: Wire fv_axi_handshake.\axi_req_wdata [11] is used but has no driver.
Warning: Wire fv_axi_handshake.\axi_req_wdata [10] is used but has no driver.
Warning: Wire fv_axi_handshake.\axi_req_wdata [9] is used but has no driver.
Warning: Wire fv_axi_handshake.\axi_req_wdata [8] is used but has no driver.
Warning: Wire fv_axi_handshake.\axi_req_wdata [7] is used but has no driver.
Warning: Wire fv_axi_handshake.\axi_req_wdata [6] is used but has no driver.
Warning: Wire fv_axi_handshake.\axi_req_wdata [5] is used but has no driver.
Warning: Wire fv_axi_handshake.\axi_req_wdata [4] is used but has no driver.
Warning: Wire fv_axi_handshake.\axi_req_wdata [3] is used but has no driver.
Warning: Wire fv_axi_handshake.\axi_req_wdata [2] is used but has no driver.
Warning: Wire fv_axi_handshake.\axi_req_wdata [1] is used but has no driver.
Warning: Wire fv_axi_handshake.\axi_req_wdata [0] is used but has no driver.
Warning: Wire fv_axi_handshake.\axi_req_valid is used but has no driver.
Warning: Wire fv_axi_handshake.\axi_req_size [1] is used but has no driver.
Warning: Wire fv_axi_handshake.\axi_req_size [0] is used but has no driver.
Warning: Wire fv_axi_handshake.\axi_req_addr [31] is used but has no driver.
Warning: Wire fv_axi_handshake.\axi_req_addr [30] is used but has no driver.
Warning: Wire fv_axi_handshake.\axi_req_addr [29] is used but has no driver.
Warning: Wire fv_axi_handshake.\axi_req_addr [28] is used but has no driver.
Warning: Wire fv_axi_handshake.\axi_req_addr [27] is used but has no driver.
Warning: Wire fv_axi_handshake.\axi_req_addr [26] is used but has no driver.
Warning: Wire fv_axi_handshake.\axi_req_addr [25] is used but has no driver.
Warning: Wire fv_axi_handshake.\axi_req_addr [24] is used but has no driver.
Warning: Wire fv_axi_handshake.\axi_req_addr [23] is used but has no driver.
Warning: Wire fv_axi_handshake.\axi_req_addr [22] is used but has no driver.
Warning: Wire fv_axi_handshake.\axi_req_addr [21] is used but has no driver.
Warning: Wire fv_axi_handshake.\axi_req_addr [20] is used but has no driver.
Warning: Wire fv_axi_handshake.\axi_req_addr [19] is used but has no driver.
Warning: Wire fv_axi_handshake.\axi_req_addr [18] is used but has no driver.
Warning: Wire fv_axi_handshake.\axi_req_addr [17] is used but has no driver.
Warning: Wire fv_axi_handshake.\axi_req_addr [16] is used but has no driver.
Warning: Wire fv_axi_handshake.\axi_req_addr [15] is used but has no driver.
Warning: Wire fv_axi_handshake.\axi_req_addr [14] is used but has no driver.
Warning: Wire fv_axi_handshake.\axi_req_addr [13] is used but has no driver.
Warning: Wire fv_axi_handshake.\axi_req_addr [12] is used but has no driver.
Warning: Wire fv_axi_handshake.\axi_req_addr [11] is used but has no driver.
Warning: Wire fv_axi_handshake.\axi_req_addr [10] is used but has no driver.
Warning: Wire fv_axi_handshake.\axi_req_addr [9] is used but has no driver.
Warning: Wire fv_axi_handshake.\axi_req_addr [8] is used but has no driver.
Warning: Wire fv_axi_handshake.\axi_req_addr [7] is used but has no driver.
Warning: Wire fv_axi_handshake.\axi_req_addr [6] is used but has no driver.
Warning: Wire fv_axi_handshake.\axi_req_addr [5] is used but has no driver.
Warning: Wire fv_axi_handshake.\axi_req_addr [4] is used but has no driver.
Warning: Wire fv_axi_handshake.\axi_req_addr [3] is used but has no driver.
Warning: Wire fv_axi_handshake.\axi_req_addr [2] is used but has no driver.
Warning: Wire fv_axi_handshake.\axi_req_addr [1] is used but has no driver.
Warning: Wire fv_axi_handshake.\axi_req_addr [0] is used but has no driver.
Warning: Wire fv_axi_handshake.\RVALID is used but has no driver.
Warning: Wire fv_axi_handshake.\RRESP [1] is used but has no driver.
Warning: Wire fv_axi_handshake.\RRESP [0] is used but has no driver.
Warning: Wire fv_axi_handshake.\RDATA [31] is used but has no driver.
Warning: Wire fv_axi_handshake.\RDATA [30] is used but has no driver.
Warning: Wire fv_axi_handshake.\RDATA [29] is used but has no driver.
Warning: Wire fv_axi_handshake.\RDATA [28] is used but has no driver.
Warning: Wire fv_axi_handshake.\RDATA [27] is used but has no driver.
Warning: Wire fv_axi_handshake.\RDATA [26] is used but has no driver.
Warning: Wire fv_axi_handshake.\RDATA [25] is used but has no driver.
Warning: Wire fv_axi_handshake.\RDATA [24] is used but has no driver.
Warning: Wire fv_axi_handshake.\RDATA [23] is used but has no driver.
Warning: Wire fv_axi_handshake.\RDATA [22] is used but has no driver.
Warning: Wire fv_axi_handshake.\RDATA [21] is used but has no driver.
Warning: Wire fv_axi_handshake.\RDATA [20] is used but has no driver.
Warning: Wire fv_axi_handshake.\RDATA [19] is used but has no driver.
Warning: Wire fv_axi_handshake.\RDATA [18] is used but has no driver.
Warning: Wire fv_axi_handshake.\RDATA [17] is used but has no driver.
Warning: Wire fv_axi_handshake.\RDATA [16] is used but has no driver.
Warning: Wire fv_axi_handshake.\RDATA [15] is used but has no driver.
Warning: Wire fv_axi_handshake.\RDATA [14] is used but has no driver.
Warning: Wire fv_axi_handshake.\RDATA [13] is used but has no driver.
Warning: Wire fv_axi_handshake.\RDATA [12] is used but has no driver.
Warning: Wire fv_axi_handshake.\RDATA [11] is used but has no driver.
Warning: Wire fv_axi_handshake.\RDATA [10] is used but has no driver.
Warning: Wire fv_axi_handshake.\RDATA [9] is used but has no driver.
Warning: Wire fv_axi_handshake.\RDATA [8] is used but has no driver.
Warning: Wire fv_axi_handshake.\RDATA [7] is used but has no driver.
Warning: Wire fv_axi_handshake.\RDATA [6] is used but has no driver.
Warning: Wire fv_axi_handshake.\RDATA [5] is used but has no driver.
Warning: Wire fv_axi_handshake.\RDATA [4] is used but has no driver.
Warning: Wire fv_axi_handshake.\RDATA [3] is used but has no driver.
Warning: Wire fv_axi_handshake.\RDATA [2] is used but has no driver.
Warning: Wire fv_axi_handshake.\RDATA [1] is used but has no driver.
Warning: Wire fv_axi_handshake.\RDATA [0] is used but has no driver.
Warning: Wire fv_axi_handshake.\BVALID is used but has no driver.
Warning: Wire fv_axi_handshake.\BRESP [1] is used but has no driver.
Warning: Wire fv_axi_handshake.\BRESP [0] is used but has no driver.
Warning: Wire fv_axi_handshake.\ARREADY is used but has no driver.
Warning: Wire fv_axi_handshake.\AWREADY is used but has no driver.
Warning: Wire fv_axi_handshake.\WREADY is used but has no driver.
Found and reported 109 problems.

10. Executing SETUNDEF pass (replace undef values with defined constants).

11. Executing OPT pass (performing simple optimizations).

11.1. Executing OPT_EXPR pass (perform const folding).
Optimizing module axi_interface.
Optimizing module fv_axi_handshake.

11.2. Executing OPT_MERGE pass (detect identical cells).
Finding identical cells in module `\axi_interface'.
Finding identical cells in module `\fv_axi_handshake'.
Removed a total of 0 cells.

11.3. Executing OPT_DFF pass (perform DFF optimizations).

11.4. Executing OPT_CLEAN pass (remove unused cells and wires).
Finding unused cells or wires in module \axi_interface..
Finding unused cells or wires in module \fv_axi_handshake..
Removed 0 unused cells and 98 unused wires.
<suppressed ~1 debug messages>

11.5. Finished fast OPT passes.

12. Executing OPT_CLEAN pass (remove unused cells and wires).
Finding unused cells or wires in module \axi_interface..
Finding unused cells or wires in module \fv_axi_handshake..
Removed 0 unused cells and 21 unused wires.
<suppressed ~2 debug messages>

13. Executing RTLIL backend.
Output filename: ../model/design_prep.il

Warnings: 109 unique messages, 109 total
End of script. Logfile hash: 5f918a3c37, CPU: user 0.04s system 0.00s, MEM: 14.86 MB peak
Yosys 0.33 (git sha1 2584903a060)
Time spent: 40% 4x opt_clean (0 sec), 12% 1x check (0 sec), ...
